T965C 000:011.019   SEGGER J-Link V7.22 Log File
T965C 000:011.124   DLL Compiled: Jun  2 2021 10:03:15
T965C 000:011.136   Logging started @ 2023-03-21 04:46
T965C 000:011.180 - 11.185ms
T965C 000:011.196 JLINK_SetWarnOutHandler(...)
T965C 000:011.209 - 0.018ms
T965C 000:011.221 JLINK_OpenEx(...)
T965C 000:013.366   Firmware: J-Link V9 compiled Dec 13 2022 11:14:50
T965C 000:013.850   Firmware: J-Link V9 compiled Dec 13 2022 11:14:50
T965C 000:013.980   Decompressing FW timestamp took 96 us
T965C 000:020.637   Hardware: V9.20
T965C 000:020.692   S/N: 25952322
T965C 000:020.710   OEM: SEGGER
T965C 000:020.727   Feature(s): RDI, GDB, FlashDL, FlashBP, JFlash
T965C 000:021.551   TELNET listener socket opened on port 19021
T965C 000:021.815   WEBSRV Starting webserver
T965C 000:021.935   WEBSRV Webserver running on local port 19080
T965C 000:021.956 - 10.741ms returns "O.K."
T965C 000:021.976 JLINK_GetEmuCaps()
T965C 000:022.059 - 0.089ms returns 0xB9FF7BBF
T965C 000:022.075 JLINK_TIF_GetAvailable(...)
T965C 000:022.246 - 0.177ms
T965C 000:022.261 JLINK_SetErrorOutHandler(...)
T965C 000:022.273 - 0.017ms
T965C 000:022.293 JLINK_ExecCommand("ProjectFile = "C:\Users\13687\Desktop\IOL2000\CKB\JLinkSettings.ini"", ...). 
T965C 000:030.701   Ref file found at: C:\Keil_v5\ARM\Segger\JLinkDevices.ref
T965C 000:030.973   XML referenced by ref file: C:\Program Files (x86)\SEGGER\JLink\JLinkDevices.xml
T965C 000:031.818   C:\Program Files (x86)\SEGGER\JLink\JLinkDevices.xml evaluated successfully.
T965C 000:104.136 - 81.861ms returns 0x00
T965C 000:104.191 JLINK_ExecCommand("Device = GD32F407ZG", ...). 
T965C 000:104.429   Device "GD32F407ZG" selected.
T965C 000:104.942 - 0.746ms returns 0x00
T965C 000:104.964 JLINK_GetHardwareVersion()
T965C 000:104.975 - 0.015ms returns 92000
T965C 000:104.988 JLINK_GetDLLVersion()
T965C 000:104.998 - 0.014ms returns 72200
T965C 000:105.008 JLINK_GetOEMString(...)
T965C 000:105.019 JLINK_GetFirmwareString(...)
T965C 000:105.029 - 0.014ms
T965C 000:105.067 JLINK_GetDLLVersion()
T965C 000:105.078 - 0.015ms returns 72200
T965C 000:105.088 JLINK_GetCompileDateTime()
T965C 000:105.098 - 0.014ms
T965C 000:105.112 JLINK_GetFirmwareString(...)
T965C 000:105.123 - 0.015ms
T965C 000:105.135 JLINK_GetHardwareVersion()
T965C 000:105.145 - 0.014ms returns 92000
T965C 000:105.158 JLINK_GetSN()
T965C 000:105.168 - 0.014ms returns 25952322
T965C 000:105.180 JLINK_GetOEMString(...)
T965C 000:105.195 JLINK_TIF_Select(JLINKARM_TIF_SWD)
T965C 000:106.233 - 1.043ms returns 0x00
T965C 000:106.245 JLINK_HasError()
T965C 000:106.260 JLINK_SetSpeed(50000)
T965C 000:106.440 - 0.184ms
T965C 000:106.452 JLINK_GetId()
T965C 000:107.481   Found SW-DP with ID 0x2BA01477
T965C 000:109.535   Old FW that does not support reading DPIDR via DAP jobs
T965C 000:110.121   DPv0 detected
T965C 000:110.143   Scanning AP map to find all available APs
T965C 000:110.648   AP[1]: Stopped AP scan as end of AP map has been reached
T965C 000:110.678   AP[0]: AHB-AP (IDR: 0x24770011)
T965C 000:110.697   Iterating through AP map to find AHB-AP to use
T965C 000:111.496   AP[0]: Core found
T965C 000:111.516   AP[0]: AHB-AP ROM base: 0xE00FF000
T965C 000:111.930   CPUID register: 0x410FC241. Implementer code: 0x41 (ARM)
T965C 000:111.950   Found Cortex-M4 r0p1, Little endian.
T965C 000:213.239   -- Max. mem block: 0x00010BB0
T965C 000:213.668   CPU_ReadMem(4 bytes @ 0xE000EDF0)
T965C 000:214.212   CPU_WriteMem(4 bytes @ 0xE000EDF0)
T965C 000:214.763   CPU_ReadMem(4 bytes @ 0xE0002000)
T965C 000:215.278   FPUnit: 6 code (BP) slots and 2 literal slots
T965C 000:215.355   CPU_ReadMem(4 bytes @ 0xE000EDFC)
T965C 000:215.829   CPU_WriteMem(4 bytes @ 0xE000EDFC)
T965C 000:216.277   CPU_ReadMem(4 bytes @ 0xE0001000)
T965C 000:216.713   CPU_WriteMem(4 bytes @ 0xE0001000)
T965C 000:217.154   CPU_ReadMem(4 bytes @ 0xE000ED88)
T965C 000:217.732   CPU_WriteMem(4 bytes @ 0xE000ED88)
T965C 000:218.189   CPU_ReadMem(4 bytes @ 0xE000ED88)
T965C 000:218.626   CPU_WriteMem(4 bytes @ 0xE000ED88)
T965C 000:219.049   CoreSight components:
T965C 000:219.199   ROMTbl[0] @ E00FF000
T965C 000:219.252   CPU_ReadMem(64 bytes @ 0xE00FF000)
T965C 000:219.862   CPU_ReadMem(32 bytes @ 0xE000EFE0)
T965C 000:220.441   ROMTbl[0][0]: E000E000, CID: B105E00D, PID: 000BB00C SCS-M7
T965C 000:220.506   CPU_ReadMem(32 bytes @ 0xE0001FE0)
T965C 000:221.042   ROMTbl[0][1]: E0001000, CID: B105E00D, PID: 003BB002 DWT
T965C 000:221.104   CPU_ReadMem(32 bytes @ 0xE0002FE0)
T965C 000:221.653   ROMTbl[0][2]: E0002000, CID: B105E00D, PID: 002BB003 FPB
T965C 000:221.698   CPU_ReadMem(32 bytes @ 0xE0000FE0)
T965C 000:222.217   ROMTbl[0][3]: E0000000, CID: B105E00D, PID: 003BB001 ITM
T965C 000:222.262   CPU_ReadMem(32 bytes @ 0xE0040FE0)
T965C 000:222.854   ROMTbl[0][4]: E0040000, CID: B105900D, PID: 000BB9A1 TPIU
T965C 000:222.899   CPU_ReadMem(32 bytes @ 0xE0041FE0)
T965C 000:223.494   ROMTbl[0][5]: E0041000, CID: 00000000, PID: 00000000 ???
T965C 000:224.012 - 117.583ms returns 0x2BA01477
T965C 000:224.057 JLINK_GetDLLVersion()
T965C 000:224.079 - 0.032ms returns 72200
T965C 000:224.197 JLINK_CORE_GetFound()
T965C 000:224.230 - 0.044ms returns 0xE0000FF
T965C 000:224.255 JLINK_GetDebugInfo(0x100 = JLINKARM_ROM_TABLE_ADDR_INDEX)
T965C 000:224.278   Value=0xE00FF000
T965C 000:224.309 - 0.065ms returns 0
T965C 000:224.347 JLINK_GetDebugInfo(0x100 = JLINKARM_ROM_TABLE_ADDR_INDEX)
T965C 000:224.369   Value=0xE00FF000
T965C 000:224.400 - 0.063ms returns 0
T965C 000:224.423 JLINK_GetDebugInfo(0x101 = JLINKARM_DEBUG_INFO_ETM_ADDR_INDEX)
T965C 000:224.450   Value=0x00000000
T965C 000:224.481 - 0.068ms returns 0
T965C 000:224.506 JLINK_ReadMemEx(0xE0041FF0, 0x10 Bytes, Flags = 0x02000004)
T965C 000:224.543   CPU_ReadMem(16 bytes @ 0xE0041FF0)
T965C 000:225.125   Data:  00 00 00 00 00 00 00 00 00 00 00 00 00 00 00 00
T965C 000:225.168 - 0.673ms returns 16 (0x10)
T965C 000:225.194 JLINK_GetDebugInfo(0x102 = JLINKARM_DEBUG_INFO_MTB_ADDR_INDEX)
T965C 000:225.217   Value=0x00000000
T965C 000:225.248 - 0.064ms returns 0
T965C 000:225.271 JLINK_GetDebugInfo(0x103 = JLINKARM_DEBUG_INFO_TPIU_ADDR_INDEX)
T965C 000:225.292   Value=0xE0040000
T965C 000:225.323 - 0.063ms returns 0
T965C 000:225.346 JLINK_GetDebugInfo(0x104 = JLINKARM_DEBUG_INFO_ITM_ADDR_INDEX)
T965C 000:225.367   Value=0xE0000000
T965C 000:225.398 - 0.063ms returns 0
T965C 000:225.421 JLINK_GetDebugInfo(0x105 = JLINKARM_DEBUG_INFO_DWT_ADDR_INDEX)
T965C 000:225.442   Value=0xE0001000
T965C 000:225.473 - 0.063ms returns 0
T965C 000:225.496 JLINK_GetDebugInfo(0x106 = JLINKARM_DEBUG_INFO_FPB_ADDR_INDEX)
T965C 000:225.517   Value=0xE0002000
T965C 000:225.548 - 0.063ms returns 0
T965C 000:225.571 JLINK_GetDebugInfo(0x107 = JLINKARM_DEBUG_INFO_NVIC_ADDR_INDEX)
T965C 000:225.592   Value=0xE000E000
T965C 000:225.624 - 0.063ms returns 0
T965C 000:225.646 JLINK_GetDebugInfo(0x10C = JLINKARM_DEBUG_INFO_DBG_ADDR_INDEX)
T965C 000:225.668   Value=0xE000EDF0
T965C 000:225.698 - 0.062ms returns 0
T965C 000:225.721 JLINK_GetDebugInfo(0x01 = Unknown)
T965C 000:225.742   Value=0x00000001
T965C 000:225.773 - 0.062ms returns 0
T965C 000:225.795 JLINK_ReadMemU32(0xE000ED00, 0x1 Items)
T965C 000:225.824   CPU_ReadMem(4 bytes @ 0xE000ED00)
T965C 000:226.280   Data:  41 C2 0F 41
T965C 000:226.329   Debug reg: CPUID
T965C 000:226.361 - 0.576ms returns 1 (0x1)
T965C 000:226.387 JLINK_GetDebugInfo(0x10F = JLINKARM_DEBUG_INFO_HAS_CORTEX_M_SECURITY_EXT_INDEX)
T965C 000:226.410   Value=0x00000000
T965C 000:226.441 - 0.064ms returns 0
T965C 000:226.464 JLINK_HasError()
T965C 000:226.487 JLINK_SetResetType(JLINKARM_CM3_RESET_TYPE_NORMAL)
T965C 000:226.508 - 0.031ms returns JLINKARM_CM3_RESET_TYPE_NORMAL
T965C 000:226.531 JLINK_Reset()
T965C 000:226.564   CPU is running
T965C 000:226.598   CPU_WriteMem(4 bytes @ 0xE000EDF0)
T965C 000:227.061   CPU is running
T965C 000:227.100   CPU_WriteMem(4 bytes @ 0xE000EDFC)
T965C 000:227.520   Reset: Halt core after reset via DEMCR.VC_CORERESET.
T965C 000:228.449   Reset: Reset device via AIRCR.SYSRESETREQ.
T965C 000:228.488   CPU is running
T965C 000:228.525   CPU_WriteMem(4 bytes @ 0xE000ED0C)
T965C 000:282.645   CPU_ReadMem(4 bytes @ 0xE000EDF0)
T965C 000:283.176   CPU_ReadMem(4 bytes @ 0xE000EDF0)
T965C 000:283.706   CPU is running
T965C 000:283.765   CPU_WriteMem(4 bytes @ 0xE000EDF0)
T965C 000:284.264   CPU is running
T965C 000:284.341   CPU_WriteMem(4 bytes @ 0xE000EDFC)
T965C 000:290.209   CPU_ReadMem(4 bytes @ 0xE000EDF0)
T965C 000:292.596   CPU_WriteMem(4 bytes @ 0xE0002000)
T965C 000:293.106   CPU_ReadMem(4 bytes @ 0xE000EDFC)
T965C 000:293.640   CPU_ReadMem(4 bytes @ 0xE0001000)
T965C 000:294.174 - 67.680ms
T965C 000:294.272 JLINK_HasError()
T965C 000:294.438 JLINK_ReadReg(R15 (PC))
T965C 000:294.506 - 0.087ms returns 0x0800025C
T965C 000:294.549 JLINK_ReadReg(XPSR)
T965C 000:294.589 - 0.057ms returns 0x01000000
T965C 000:294.627 JLINK_Halt()
T965C 000:294.660 - 0.049ms returns 0x00
T965C 000:294.696 JLINK_ReadMemU32(0xE000EDF0, 0x1 Items)
T965C 000:294.738   CPU_ReadMem(4 bytes @ 0xE000EDF0)
T965C 000:295.271   Data:  03 00 03 00
T965C 000:295.340   Debug reg: DHCSR
T965C 000:295.391 - 0.713ms returns 1 (0x1)
T965C 000:295.446 JLINK_WriteU32_64(0xE000EDF0, 0xA05F0003)
T965C 000:295.484   Debug reg: DHCSR
T965C 000:296.052   CPU_WriteMem(4 bytes @ 0xE000EDF0)
T965C 000:296.504 - 1.097ms returns 0 (0x00000000)
T965C 000:296.569 JLINK_WriteU32_64(0xE000EDFC, 0x01000000)
T965C 000:296.604   Debug reg: DEMCR
T965C 000:296.668   CPU_WriteMem(4 bytes @ 0xE000EDFC)
T965C 000:297.190 - 0.656ms returns 0 (0x00000000)
T965C 000:297.313 JLINK_GetHWStatus(...)
T965C 000:297.783 - 0.504ms returns 0
T965C 000:297.881 JLINK_GetNumBPUnits(Type = 0xFFFFFF00)
T965C 000:297.920 - 0.055ms returns 0x06
T965C 000:297.956 JLINK_GetNumBPUnits(Type = 0xF0)
T965C 000:297.989 - 0.050ms returns 0x2000
T965C 000:298.025 JLINK_GetNumWPUnits()
T965C 000:298.059 - 0.050ms returns 4
T965C 000:298.114 JLINK_GetSpeed()
T965C 000:298.147 - 0.049ms returns 12000
T965C 000:298.194 JLINK_ReadMemU32(0xE000E004, 0x1 Items)
T965C 000:298.239   CPU_ReadMem(4 bytes @ 0xE000E004)
T965C 000:298.796   Data:  02 00 00 00
T965C 000:298.846 - 0.665ms returns 1 (0x1)
T965C 000:298.877 JLINK_ReadMemU32(0xE000E004, 0x1 Items)
T965C 000:298.910   CPU_ReadMem(4 bytes @ 0xE000E004)
T965C 000:299.417   Data:  02 00 00 00
T965C 000:299.467 - 0.603ms returns 1 (0x1)
T965C 000:299.498 JLINK_WriteMemEx(0xE0001000, 0x0000001C Bytes, Flags = 0x02000004)
T965C 000:299.524   Data:  01 00 00 00 00 00 00 00 00 00 00 00 00 00 00 00 ...
T965C 000:299.577   CPU_WriteMem(28 bytes @ 0xE0001000)
T965C 000:300.099 - 0.626ms returns 0x1C
T965C 000:300.159 JLINK_HasError()
T965C 000:300.188 JLINK_ReadReg(R15 (PC))
T965C 000:300.218 - 0.042ms returns 0x0800025C
T965C 000:300.244 JLINK_ReadReg(XPSR)
T965C 000:300.269 - 0.037ms returns 0x01000000
T965C 000:302.062 JLINK_ReadMemEx(0xE0001004, 0x4 Bytes, Flags = 0x02000000)
T965C 000:302.079   Data:  00 00 00 00
T965C 000:302.094   Debug reg: DWT_CYCCNT
T965C 000:302.109 - 0.051ms returns 4 (0x4)
T965C 000:381.739 JLINK_HasError()
T965C 000:381.780 JLINK_SetResetType(JLINKARM_CM3_RESET_TYPE_NORMAL)
T965C 000:381.792 - 0.016ms returns JLINKARM_CM3_RESET_TYPE_NORMAL
T965C 000:381.803 JLINK_Reset()
T965C 000:381.824   CPU_WriteMem(4 bytes @ 0xE000EDF0)
T965C 000:382.179   CPU_WriteMem(4 bytes @ 0xE000EDFC)
T965C 000:382.491   Reset: Halt core after reset via DEMCR.VC_CORERESET.
T965C 000:383.009   Reset: Reset device via AIRCR.SYSRESETREQ.
T965C 000:383.032   CPU_WriteMem(4 bytes @ 0xE000ED0C)
T965C 000:435.896   CPU_ReadMem(4 bytes @ 0xE000EDF0)
T965C 000:436.307   CPU_ReadMem(4 bytes @ 0xE000EDF0)
T965C 000:436.665   CPU_WriteMem(4 bytes @ 0xE000EDF0)
T965C 000:437.108   CPU_WriteMem(4 bytes @ 0xE000EDFC)
T965C 000:442.799   CPU_ReadMem(4 bytes @ 0xE000EDF0)
T965C 000:445.647   CPU_WriteMem(4 bytes @ 0xE0002000)
T965C 000:446.203   CPU_ReadMem(4 bytes @ 0xE000EDFC)
T965C 000:446.834   CPU_ReadMem(4 bytes @ 0xE0001000)
T965C 000:447.362 - 65.597ms
T965C 000:447.609 JLINK_HasError()
T965C 000:447.660 JLINK_ReadReg(R15 (PC))
T965C 000:447.710 - 0.068ms returns 0x0800025C
T965C 000:447.750 JLINK_ReadReg(XPSR)
T965C 000:447.787 - 0.055ms returns 0x01000000
T965C 000:449.033 JLINK_ReadMemEx(0x0800025C, 0x3C Bytes, Flags = 0x02000000)
T965C 000:449.132   CPU_ReadMem(128 bytes @ 0x08000240)
T965C 000:450.129    -- Updating C cache (128 bytes @ 0x08000240)
T965C 000:450.210    -- Read from C cache (60 bytes @ 0x0800025C)
T965C 000:450.258   Data:  06 48 80 47 06 48 00 47 FE E7 FE E7 FE E7 FE E7 ...
T965C 000:450.301 - 1.283ms returns 60 (0x3C)
T965C 000:450.341 JLINK_ReadMemEx(0x0800025C, 0x2 Bytes, Flags = 0x02000000)
T965C 000:450.374    -- Read from C cache (2 bytes @ 0x0800025C)
T965C 000:450.417   Data:  06 48
T965C 000:450.461 - 0.134ms returns 2 (0x2)
T965C 000:450.592 JLINK_ReadMemEx(0x0800025E, 0x2 Bytes, Flags = 0x02000000)
T965C 000:450.624    -- Read from C cache (2 bytes @ 0x0800025E)
T965C 000:450.667   Data:  80 47
T965C 000:450.710 - 0.132ms returns 2 (0x2)
T965C 000:450.764 JLINK_ReadMemEx(0x0800025E, 0x2 Bytes, Flags = 0x02000000)
T965C 000:450.795    -- Read from C cache (2 bytes @ 0x0800025E)
T965C 000:450.839   Data:  80 47
T965C 000:450.882 - 0.132ms returns 2 (0x2)
T965C 000:450.914 JLINK_ReadMemEx(0x08000260, 0x3C Bytes, Flags = 0x02000000)
T965C 000:450.944    -- Read from C cache (60 bytes @ 0x08000260)
T965C 000:450.989   Data:  06 48 00 47 FE E7 FE E7 FE E7 FE E7 FE E7 FE E7 ...
T965C 000:451.031 - 0.132ms returns 60 (0x3C)
T965C 000:451.067 JLINK_ReadMemEx(0x08000260, 0x2 Bytes, Flags = 0x02000000)
T965C 000:451.097    -- Read from C cache (2 bytes @ 0x08000260)
T965C 000:451.140   Data:  06 48
T965C 000:451.184 - 0.131ms returns 2 (0x2)
T965C 000:527.984 JLINK_ReadMemEx(0x40026400, 0x4 Bytes, Flags = 0x02000004)
T965C 000:528.031   CPU_ReadMem(4 bytes @ 0x40026400)
T965C 000:528.292   Data:  00 00 00 00
T965C 000:528.310 - 0.331ms returns 4 (0x4)
T965C 000:528.325 JLINK_ReadMemEx(0x40026404, 0x4 Bytes, Flags = 0x02000004)
T965C 000:528.338   CPU_ReadMem(4 bytes @ 0x40026404)
T965C 000:528.562   Data:  00 00 00 00
T965C 000:528.580 - 0.260ms returns 4 (0x4)
T965C 000:528.593 JLINK_ReadMemEx(0x40026410, 0xBC Bytes, Flags = 0x02000004)
T965C 000:528.605   CPU_ReadMem(188 bytes @ 0x40026410)
T965C 000:529.442   Data:  00 00 00 00 00 00 00 00 00 00 00 00 00 00 00 00 ...
T965C 000:529.459 - 0.871ms returns 188 (0xBC)
T965C 000:529.472 JLINK_ReadMemEx(0x400264CC, 0x4 Bytes, Flags = 0x02000004)
T965C 000:529.484   CPU_ReadMem(4 bytes @ 0x400264CC)
T965C 000:529.774   Data:  00 00 00 00
T965C 000:529.813 - 0.346ms returns 4 (0x4)
T965C 000:555.496 JLINK_ReadMemEx(0x40023800, 0x18 Bytes, Flags = 0x02000004)
T965C 000:555.543   CPU_ReadMem(24 bytes @ 0x40023800)
T965C 000:555.938   Data:  83 92 00 00 10 30 00 24 00 00 00 00 00 00 00 00 ...
T965C 000:555.998 - 0.507ms returns 24 (0x18)
T965C 000:556.019 JLINK_ReadMemEx(0x40023818, 0x4 Bytes, Flags = 0x02000004)
T965C 000:556.046   CPU_ReadMem(4 bytes @ 0x40023818)
T965C 000:556.289   Data:  00 00 00 00
T965C 000:556.307 - 0.292ms returns 4 (0x4)
T965C 000:556.320 JLINK_ReadMemEx(0x40023820, 0x4 Bytes, Flags = 0x02000004)
T965C 000:556.333   CPU_ReadMem(4 bytes @ 0x40023820)
T965C 000:556.582   Data:  00 00 00 00
T965C 000:556.599 - 0.285ms returns 4 (0x4)
T965C 000:556.612 JLINK_ReadMemEx(0x40023824, 0x4 Bytes, Flags = 0x02000004)
T965C 000:556.625   CPU_ReadMem(4 bytes @ 0x40023824)
T965C 000:556.846   Data:  00 00 00 00
T965C 000:556.864 - 0.257ms returns 4 (0x4)
T965C 000:556.876 JLINK_ReadMemEx(0x40023830, 0x8 Bytes, Flags = 0x02000004)
T965C 000:556.889   CPU_ReadMem(8 bytes @ 0x40023830)
T965C 000:557.164   Data:  00 00 10 00 00 00 00 00
T965C 000:557.182 - 0.310ms returns 8 (0x8)
T965C 000:557.195 JLINK_ReadMemEx(0x40023838, 0x4 Bytes, Flags = 0x02000004)
T965C 000:557.207   CPU_ReadMem(4 bytes @ 0x40023838)
T965C 000:557.412   Data:  00 00 00 00
T965C 000:557.429 - 0.240ms returns 4 (0x4)
T965C 000:557.442 JLINK_ReadMemEx(0x40023840, 0x4 Bytes, Flags = 0x02000004)
T965C 000:557.496   CPU_ReadMem(4 bytes @ 0x40023840)
T965C 000:557.776   Data:  00 00 00 00
T965C 000:557.793 - 0.356ms returns 4 (0x4)
T965C 000:557.806 JLINK_ReadMemEx(0x40023844, 0x4 Bytes, Flags = 0x02000004)
T965C 000:557.819   CPU_ReadMem(4 bytes @ 0x40023844)
T965C 000:558.037   Data:  00 00 00 00
T965C 000:558.054 - 0.253ms returns 4 (0x4)
T965C 000:558.067 JLINK_ReadMemEx(0x40023850, 0x8 Bytes, Flags = 0x02000004)
T965C 000:558.080   CPU_ReadMem(8 bytes @ 0x40023850)
T965C 000:558.315   Data:  FF 91 EF 7E C1 00 00 00
T965C 000:558.332 - 0.270ms returns 8 (0x8)
T965C 000:558.345 JLINK_ReadMemEx(0x40023858, 0x4 Bytes, Flags = 0x02000004)
T965C 000:558.358   CPU_ReadMem(4 bytes @ 0x40023858)
T965C 000:558.640   Data:  01 00 00 00
T965C 000:558.658 - 0.318ms returns 4 (0x4)
T965C 000:558.671 JLINK_ReadMemEx(0x40023860, 0x4 Bytes, Flags = 0x02000004)
T965C 000:558.683   CPU_ReadMem(4 bytes @ 0x40023860)
T965C 000:558.887   Data:  FF C9 FE F6
T965C 000:558.904 - 0.238ms returns 4 (0x4)
T965C 000:558.917 JLINK_ReadMemEx(0x40023864, 0x4 Bytes, Flags = 0x02000004)
T965C 000:558.930   CPU_ReadMem(4 bytes @ 0x40023864)
T965C 000:559.138   Data:  33 7F 77 04
T965C 000:559.155 - 0.243ms returns 4 (0x4)
T965C 000:559.168 JLINK_ReadMemEx(0x40023870, 0x4 Bytes, Flags = 0x02000004)
T965C 000:559.181   CPU_ReadMem(4 bytes @ 0x40023870)
T965C 000:559.386   Data:  03 81 00 00
T965C 000:559.404 - 0.241ms returns 4 (0x4)
T965C 000:559.417 JLINK_ReadMemEx(0x40023874, 0x4 Bytes, Flags = 0x02000004)
T965C 000:559.429   CPU_ReadMem(4 bytes @ 0x40023874)
T965C 000:559.665   Data:  00 00 00 10
T965C 000:559.683 - 0.271ms returns 4 (0x4)
T965C 000:559.696 JLINK_ReadMemEx(0x40023880, 0xC Bytes, Flags = 0x02000004)
T965C 000:559.708   CPU_ReadMem(12 bytes @ 0x40023880)
T965C 000:559.942   Data:  00 00 00 00 00 30 00 24 00 30 00 24
T965C 000:559.959 - 0.269ms returns 12 (0xC)
T965C 000:559.972 JLINK_ReadMemEx(0x4002388C, 0x4 Bytes, Flags = 0x02000004)
T965C 000:559.985   CPU_ReadMem(4 bytes @ 0x4002388C)
T965C 000:560.186   Data:  00 00 00 00
T965C 000:560.204 - 0.236ms returns 4 (0x4)
T965C 000:560.217 JLINK_ReadMemEx(0x400238C0, 0x4 Bytes, Flags = 0x02000004)
T965C 000:560.229   CPU_ReadMem(4 bytes @ 0x400238C0)
T965C 000:560.437   Data:  00 00 00 8B
T965C 000:560.455 - 0.243ms returns 4 (0x4)
T965C 000:560.468 JLINK_ReadMemEx(0x400238CC, 0x4 Bytes, Flags = 0x02000004)
T965C 000:560.480   CPU_ReadMem(4 bytes @ 0x400238CC)
T965C 000:560.793   Data:  00 00 00 00
T965C 000:560.810 - 0.348ms returns 4 (0x4)
T965C 000:560.823 JLINK_ReadMemEx(0x400238E0, 0x8 Bytes, Flags = 0x02000004)
T965C 000:560.835   CPU_ReadMem(8 bytes @ 0x400238E0)
T965C 000:561.064   Data:  00 00 00 00 00 00 00 00
T965C 000:561.082 - 0.264ms returns 8 (0x8)
T965C 000:561.095 JLINK_ReadMemEx(0x400238E8, 0x4 Bytes, Flags = 0x02000004)
T965C 000:561.107   CPU_ReadMem(4 bytes @ 0x400238E8)
T965C 000:561.337   Data:  00 00 00 88
T965C 000:561.361 - 0.272ms returns 4 (0x4)
T965C 000:561.376 JLINK_ReadMemEx(0x40023934, 0x4 Bytes, Flags = 0x02000004)
T965C 000:561.392   CPU_ReadMem(4 bytes @ 0x40023934)
T965C 000:561.685   Data:  00 00 00 00
T965C 000:561.706 - 0.335ms returns 4 (0x4)
T965C 000:587.504 JLINK_ReadMemEx(0x40001800, 0x4 Bytes, Flags = 0x02000004)
T965C 000:587.549   CPU_ReadMem(4 bytes @ 0x40001800)
T965C 000:587.791   Data:  00 00 00 00
T965C 000:587.809 - 0.311ms returns 4 (0x4)
T965C 000:587.824 JLINK_ReadMemEx(0x40001808, 0x8 Bytes, Flags = 0x02000004)
T965C 000:587.837   CPU_ReadMem(8 bytes @ 0x40001808)
T965C 000:588.026   Data:  00 00 00 00 00 00 00 00
T965C 000:588.043 - 0.225ms returns 8 (0x8)
T965C 000:588.056 JLINK_ReadMemEx(0x40001810, 0x4 Bytes, Flags = 0x02000004)
T965C 000:588.069   CPU_ReadMem(4 bytes @ 0x40001810)
T965C 000:588.248   Data:  00 00 00 00
T965C 000:588.266 - 0.215ms returns 4 (0x4)
T965C 000:588.278 JLINK_ReadMemEx(0x40001818, 0x4 Bytes, Flags = 0x02000004)
T965C 000:588.291   CPU_ReadMem(4 bytes @ 0x40001818)
T965C 000:588.472   Data:  00 00 00 00
T965C 000:588.489 - 0.219ms returns 4 (0x4)
T965C 000:588.507 JLINK_ReadMemEx(0x40001820, 0xC Bytes, Flags = 0x02000004)
T965C 000:588.520   CPU_ReadMem(12 bytes @ 0x40001820)
T965C 000:588.778   Data:  00 00 00 00 00 00 00 00 00 00 00 00
T965C 000:588.796 - 0.293ms returns 12 (0xC)
T965C 000:588.808 JLINK_ReadMemEx(0x4000182C, 0x4 Bytes, Flags = 0x02000004)
T965C 000:588.821   CPU_ReadMem(4 bytes @ 0x4000182C)
T965C 000:588.999   Data:  00 00 00 00
T965C 000:589.016 - 0.213ms returns 4 (0x4)
T965C 000:589.029 JLINK_ReadMemEx(0x40001834, 0x4 Bytes, Flags = 0x02000004)
T965C 000:589.041   CPU_ReadMem(4 bytes @ 0x40001834)
T965C 000:589.223   Data:  00 00 00 00
T965C 000:589.240 - 0.217ms returns 4 (0x4)
T965C 000:589.253 JLINK_ReadMemEx(0x40001838, 0x4 Bytes, Flags = 0x02000004)
T965C 000:589.265   CPU_ReadMem(4 bytes @ 0x40001838)
T965C 000:589.503   Data:  00 00 00 00
T965C 000:589.520 - 0.272ms returns 4 (0x4)
T965C 000:589.533 JLINK_ReadMemEx(0x400018FC, 0x4 Bytes, Flags = 0x02000004)
T965C 000:589.545   CPU_ReadMem(4 bytes @ 0x400018FC)
T965C 000:589.751   Data:  00 00 00 00
T965C 000:589.769 - 0.241ms returns 4 (0x4)
T965C 000:614.417 JLINK_ReadMemEx(0x40014000, 0x4 Bytes, Flags = 0x02000004)
T965C 000:614.463   CPU_ReadMem(4 bytes @ 0x40014000)
T965C 000:614.778   Data:  00 00 00 00
T965C 000:614.818 - 0.406ms returns 4 (0x4)
T965C 000:614.832 JLINK_ReadMemEx(0x40014008, 0x8 Bytes, Flags = 0x02000004)
T965C 000:614.845   CPU_ReadMem(8 bytes @ 0x40014008)
T965C 000:615.070   Data:  00 00 00 00 00 00 00 00
T965C 000:615.088 - 0.261ms returns 8 (0x8)
T965C 000:615.101 JLINK_ReadMemEx(0x40014010, 0x4 Bytes, Flags = 0x02000004)
T965C 000:615.114   CPU_ReadMem(4 bytes @ 0x40014010)
T965C 000:615.337   Data:  00 00 00 00
T965C 000:615.354 - 0.259ms returns 4 (0x4)
T965C 000:615.368 JLINK_ReadMemEx(0x40014018, 0x4 Bytes, Flags = 0x02000004)
T965C 000:615.380   CPU_ReadMem(4 bytes @ 0x40014018)
T965C 000:615.640   Data:  00 00 00 00
T965C 000:615.657 - 0.295ms returns 4 (0x4)
T965C 000:615.670 JLINK_ReadMemEx(0x40014020, 0xC Bytes, Flags = 0x02000004)
T965C 000:615.683   CPU_ReadMem(12 bytes @ 0x40014020)
T965C 000:615.917   Data:  00 00 00 00 00 00 00 00 00 00 00 00
T965C 000:615.935 - 0.269ms returns 12 (0xC)
T965C 000:615.948 JLINK_ReadMemEx(0x4001402C, 0x4 Bytes, Flags = 0x02000004)
T965C 000:615.960   CPU_ReadMem(4 bytes @ 0x4001402C)
T965C 000:616.162   Data:  00 00 00 00
T965C 000:616.179 - 0.237ms returns 4 (0x4)
T965C 000:616.192 JLINK_ReadMemEx(0x40014034, 0x4 Bytes, Flags = 0x02000004)
T965C 000:616.204   CPU_ReadMem(4 bytes @ 0x40014034)
T965C 000:616.412   Data:  00 00 00 00
T965C 000:616.430 - 0.243ms returns 4 (0x4)
T965C 000:616.443 JLINK_ReadMemEx(0x40014038, 0x4 Bytes, Flags = 0x02000004)
T965C 000:616.455   CPU_ReadMem(4 bytes @ 0x40014038)
T965C 000:616.666   Data:  00 00 00 00
T965C 000:616.684 - 0.246ms returns 4 (0x4)
T965C 000:616.697 JLINK_ReadMemEx(0x400140FC, 0x4 Bytes, Flags = 0x02000004)
T965C 000:616.709   CPU_ReadMem(4 bytes @ 0x400140FC)
T965C 000:616.912   Data:  00 00 00 00
T965C 000:616.929 - 0.238ms returns 4 (0x4)
T965C 000:641.896 JLINK_ReadMemEx(0x40011400, 0x14 Bytes, Flags = 0x02000004)
T965C 000:641.942   CPU_ReadMem(20 bytes @ 0x40011400)
T965C 000:642.250   Data:  C0 00 00 00 00 00 00 00 00 00 00 00 00 00 00 00 ...
T965C 000:642.268 - 0.378ms returns 20 (0x14)
T965C 000:642.282 JLINK_ReadMemEx(0x40011414, 0x4 Bytes, Flags = 0x02000004)
T965C 000:642.295   CPU_ReadMem(4 bytes @ 0x40011414)
T965C 000:642.518   Data:  00 00 00 00
T965C 000:642.536 - 0.259ms returns 4 (0x4)
T965C 000:642.549 JLINK_ReadMemEx(0x4001141C, 0x4 Bytes, Flags = 0x02000004)
T965C 000:642.562   CPU_ReadMem(4 bytes @ 0x4001141C)
T965C 000:642.783   Data:  00 00 00 00
T965C 000:642.800 - 0.256ms returns 4 (0x4)
T965C 000:642.813 JLINK_ReadMemEx(0x40011480, 0x8 Bytes, Flags = 0x02000004)
T965C 000:642.826   CPU_ReadMem(8 bytes @ 0x40011480)
T965C 000:643.040   Data:  00 00 00 00 00 00 00 00
T965C 000:643.058 - 0.250ms returns 8 (0x8)
T965C 000:643.070 JLINK_ReadMemEx(0x40011488, 0x4 Bytes, Flags = 0x02000004)
T965C 000:643.089   CPU_ReadMem(4 bytes @ 0x40011488)
T965C 000:643.312   Data:  00 00 00 00
T965C 000:643.330 - 0.264ms returns 4 (0x4)
T965C 000:643.342 JLINK_ReadMemEx(0x400114C0, 0x4 Bytes, Flags = 0x02000004)
T965C 000:643.355   CPU_ReadMem(4 bytes @ 0x400114C0)
T965C 000:643.562   Data:  00 00 00 00
T965C 000:643.580 - 0.243ms returns 4 (0x4)
T965C 001:509.779 JLINK_ReadMemEx(0x0800025C, 0x3C Bytes, Flags = 0x02000000)
T965C 001:509.822    -- Read from C cache (60 bytes @ 0x0800025C)
T965C 001:509.841   Data:  06 48 80 47 06 48 00 47 FE E7 FE E7 FE E7 FE E7 ...
T965C 001:509.858 - 0.084ms returns 60 (0x3C)
T965C 001:509.871 JLINK_ReadMemEx(0x0800025C, 0x2 Bytes, Flags = 0x02000000)
T965C 001:509.883    -- Read from C cache (2 bytes @ 0x0800025C)
T965C 001:509.900   Data:  06 48
T965C 001:509.918 - 0.052ms returns 2 (0x2)
T965C 001:509.931 JLINK_ReadMemEx(0x0800025E, 0x2 Bytes, Flags = 0x02000000)
T965C 001:509.942    -- Read from C cache (2 bytes @ 0x0800025E)
T965C 001:509.959   Data:  80 47
T965C 001:509.976 - 0.051ms returns 2 (0x2)
T965C 001:509.994 JLINK_ReadMemEx(0x0800025E, 0x2 Bytes, Flags = 0x02000000)
T965C 001:510.006    -- Read from C cache (2 bytes @ 0x0800025E)
T965C 001:510.023   Data:  80 47
T965C 001:510.039 - 0.051ms returns 2 (0x2)
T965C 001:510.052 JLINK_ReadMemEx(0x08000260, 0x3C Bytes, Flags = 0x02000000)
T965C 001:510.064    -- Read from C cache (60 bytes @ 0x08000260)
T965C 001:510.081   Data:  06 48 00 47 FE E7 FE E7 FE E7 FE E7 FE E7 FE E7 ...
T965C 001:510.097 - 0.051ms returns 60 (0x3C)
T965C 001:510.109 JLINK_ReadMemEx(0x08000260, 0x2 Bytes, Flags = 0x02000000)
T965C 001:510.121    -- Read from C cache (2 bytes @ 0x08000260)
T965C 001:510.137   Data:  06 48
T965C 001:510.154 - 0.050ms returns 2 (0x2)
T965C 001:634.932 JLINK_HasError()
T965C 001:634.973 JLINK_ReadReg(R0)
T965C 001:635.386 - 0.420ms returns 0x00000000
T965C 001:635.403 JLINK_ReadReg(R1)
T965C 001:635.413 - 0.015ms returns 0x80000200
T965C 001:635.424 JLINK_ReadReg(R2)
T965C 001:635.434 - 0.015ms returns 0x0000A80C
T965C 001:635.444 JLINK_ReadReg(R3)
T965C 001:635.454 - 0.014ms returns 0x04C11DB7
T965C 001:635.465 JLINK_ReadReg(R4)
T965C 001:635.475 - 0.014ms returns 0x00000000
T965C 001:635.485 JLINK_ReadReg(R5)
T965C 001:635.495 - 0.015ms returns 0x00000000
T965C 001:635.506 JLINK_ReadReg(R6)
T965C 001:635.516 - 0.015ms returns 0x00000000
T965C 001:635.527 JLINK_ReadReg(R7)
T965C 001:635.537 - 0.015ms returns 0x00000000
T965C 001:635.547 JLINK_ReadReg(R8)
T965C 001:635.563 - 0.020ms returns 0x00000000
T965C 001:635.574 JLINK_ReadReg(R9)
T965C 001:635.584 - 0.015ms returns 0x200001CC
T965C 001:635.595 JLINK_ReadReg(R10)
T965C 001:635.605 - 0.015ms returns 0x00000000
T965C 001:635.615 JLINK_ReadReg(R11)
T965C 001:635.626 - 0.014ms returns 0x00000000
T965C 001:635.636 JLINK_ReadReg(R12)
T965C 001:635.646 - 0.015ms returns 0x00000000
T965C 001:635.657 JLINK_ReadReg(R13 (SP))
T965C 001:635.667 - 0.015ms returns 0x2001F140
T965C 001:635.678 JLINK_ReadReg(R14)
T965C 001:635.688 - 0.015ms returns 0xFFFFFFFF
T965C 001:635.698 JLINK_ReadReg(R15 (PC))
T965C 001:635.709 - 0.015ms returns 0x0800025C
T965C 001:635.720 JLINK_ReadReg(XPSR)
T965C 001:635.730 - 0.015ms returns 0x01000000
T965C 001:635.740 JLINK_ReadReg(MSP)
T965C 001:635.751 - 0.015ms returns 0x2001F140
T965C 001:635.761 JLINK_ReadReg(PSP)
T965C 001:635.771 - 0.015ms returns 0x20001000
T965C 001:635.782 JLINK_ReadReg(CFBP)
T965C 001:635.792 - 0.015ms returns 0x00000000
T965C 001:635.803 JLINK_ReadReg(FPSCR)
T965C 001:638.146 - 2.353ms returns 0x00000000
T965C 001:638.165 JLINK_ReadReg(FPS0)
T965C 001:638.176 - 0.016ms returns 0x00000000
T965C 001:638.187 JLINK_ReadReg(FPS1)
T965C 001:638.197 - 0.015ms returns 0x3FE00000
T965C 001:638.207 JLINK_ReadReg(FPS2)
T965C 001:638.218 - 0.015ms returns 0x6BB93372
T965C 001:638.228 JLINK_ReadReg(FPS3)
T965C 001:638.238 - 0.015ms returns 0x487257DC
T965C 001:638.249 JLINK_ReadReg(FPS4)
T965C 001:638.263 - 0.020ms returns 0xF566C000
T965C 001:638.275 JLINK_ReadReg(FPS5)
T965C 001:638.285 - 0.015ms returns 0xA3C20AA6
T965C 001:638.296 JLINK_ReadReg(FPS6)
T965C 001:638.306 - 0.015ms returns 0x0BFE1E37
T965C 001:638.317 JLINK_ReadReg(FPS7)
T965C 001:638.327 - 0.015ms returns 0x78B0DC09
T965C 001:638.337 JLINK_ReadReg(FPS8)
T965C 001:638.348 - 0.015ms returns 0xFB011513
T965C 001:638.358 JLINK_ReadReg(FPS9)
T965C 001:638.368 - 0.015ms returns 0x7D7C4D92
T965C 001:638.379 JLINK_ReadReg(FPS10)
T965C 001:638.389 - 0.015ms returns 0xD9B9D71C
T965C 001:638.400 JLINK_ReadReg(FPS11)
T965C 001:638.410 - 0.015ms returns 0x64F98E89
T965C 001:638.420 JLINK_ReadReg(FPS12)
T965C 001:638.430 - 0.015ms returns 0x21C91232
T965C 001:638.441 JLINK_ReadReg(FPS13)
T965C 001:638.451 - 0.014ms returns 0x0D8C4C54
T965C 001:638.461 JLINK_ReadReg(FPS14)
T965C 001:638.472 - 0.015ms returns 0xDA860053
T965C 001:638.482 JLINK_ReadReg(FPS15)
T965C 001:638.492 - 0.015ms returns 0x035CE144
T965C 001:638.503 JLINK_ReadReg(FPS16)
T965C 001:638.513 - 0.014ms returns 0x00000000
T965C 001:638.523 JLINK_ReadReg(FPS17)
T965C 001:638.533 - 0.014ms returns 0x40BF4080
T965C 001:638.544 JLINK_ReadReg(FPS18)
T965C 001:638.554 - 0.015ms returns 0x00000000
T965C 001:638.564 JLINK_ReadReg(FPS19)
T965C 001:638.574 - 0.015ms returns 0x40BF4000
T965C 001:638.585 JLINK_ReadReg(FPS20)
T965C 001:638.595 - 0.015ms returns 0x00000000
T965C 001:638.606 JLINK_ReadReg(FPS21)
T965C 001:638.616 - 0.015ms returns 0x40D77000
T965C 001:638.626 JLINK_ReadReg(FPS22)
T965C 001:638.636 - 0.015ms returns 0x00000000
T965C 001:638.647 JLINK_ReadReg(FPS23)
T965C 001:638.657 - 0.015ms returns 0x419C9C38
T965C 001:638.668 JLINK_ReadReg(FPS24)
T965C 001:638.678 - 0.015ms returns 0xEBB43697
T965C 001:638.688 JLINK_ReadReg(FPS25)
T965C 001:638.698 - 0.015ms returns 0x2B07C6CC
T965C 001:638.709 JLINK_ReadReg(FPS26)
T965C 001:638.719 - 0.014ms returns 0x3C081DA8
T965C 001:638.729 JLINK_ReadReg(FPS27)
T965C 001:638.739 - 0.014ms returns 0xFC9BF60A
T965C 001:638.749 JLINK_ReadReg(FPS28)
T965C 001:638.759 - 0.015ms returns 0x20CADC94
T965C 001:638.770 JLINK_ReadReg(FPS29)
T965C 001:638.780 - 0.014ms returns 0x1DDF3402
T965C 001:638.790 JLINK_ReadReg(FPS30)
T965C 001:638.800 - 0.014ms returns 0x6AC82685
T965C 001:638.811 JLINK_ReadReg(FPS31)
T965C 001:638.821 - 0.015ms returns 0x905EC1CE
T965C 001:638.835 JLINK_ReadMemEx(0x20000144, 0x4 Bytes, Flags = 0x02000000)
T965C 001:638.850   CPU_ReadMem(64 bytes @ 0x20000140)
T965C 001:639.436    -- Updating C cache (64 bytes @ 0x20000140)
T965C 001:639.455    -- Read from C cache (4 bytes @ 0x20000144)
T965C 001:639.470   Data:  08 68 10 F0
T965C 001:639.485 - 0.654ms returns 4 (0x4)
T965C 001:639.637 JLINK_ReadMemEx(0x20000144, 0x4 Bytes, Flags = 0x02000000)
T965C 001:639.650    -- Read from C cache (4 bytes @ 0x20000144)
T965C 001:639.665   Data:  08 68 10 F0
T965C 001:639.679 - 0.047ms returns 4 (0x4)
T965C 001:639.707 JLINK_ReadMemEx(0x20000144, 0x4 Bytes, Flags = 0x02000000)
T965C 001:639.718    -- Read from C cache (4 bytes @ 0x20000144)
T965C 001:639.733   Data:  08 68 10 F0
T965C 001:639.748 - 0.045ms returns 4 (0x4)
T965C 001:642.257 JLINK_ReadMemEx(0x2000212C, 0x20 Bytes, Flags = 0x02000000)
T965C 001:642.283   CPU_ReadMem(128 bytes @ 0x20002100)
T965C 001:643.093    -- Updating C cache (128 bytes @ 0x20002100)
T965C 001:643.111    -- Read from C cache (32 bytes @ 0x2000212C)
T965C 001:643.129   Data:  90 2E 16 9A 00 9E 00 80 E1 00 00 01 08 00 45 00 ...
T965C 001:643.146 - 0.894ms returns 32 (0x20)
T965C 001:645.647 JLINK_ReadMemEx(0x20000004, 0x4 Bytes, Flags = 0x02000000)
T965C 001:645.666   CPU_ReadMem(64 bytes @ 0x20000000)
T965C 001:646.247    -- Updating C cache (64 bytes @ 0x20000000)
T965C 001:646.262    -- Read from C cache (4 bytes @ 0x20000004)
T965C 001:646.277   Data:  0D 78 2D 06
T965C 001:646.292 - 0.650ms returns 4 (0x4)
T965C 001:646.373 JLINK_ReadMemEx(0x20000004, 0x4 Bytes, Flags = 0x02000000)
T965C 001:646.384    -- Read from C cache (4 bytes @ 0x20000004)
T965C 001:646.446   Data:  0D 78 2D 06
T965C 001:646.461 - 0.093ms returns 4 (0x4)
T965C 001:646.480 JLINK_ReadMemEx(0x20000004, 0x4 Bytes, Flags = 0x02000000)
T965C 001:646.491    -- Read from C cache (4 bytes @ 0x20000004)
T965C 001:646.506   Data:  0D 78 2D 06
T965C 001:646.521 - 0.046ms returns 4 (0x4)
T965C 001:646.922 JLINK_ReadMemEx(0x20000024, 0x4 Bytes, Flags = 0x02000000)
T965C 001:646.938    -- Read from C cache (4 bytes @ 0x20000024)
T965C 001:646.953   Data:  40 1C 93 42
T965C 001:646.968 - 0.051ms returns 4 (0x4)
T965C 001:647.029 JLINK_ReadMemEx(0x20000024, 0x4 Bytes, Flags = 0x02000000)
T965C 001:647.040    -- Read from C cache (4 bytes @ 0x20000024)
T965C 001:647.055   Data:  40 1C 93 42
T965C 001:647.070 - 0.046ms returns 4 (0x4)
T965C 001:647.087 JLINK_ReadMemEx(0x20000024, 0x4 Bytes, Flags = 0x02000000)
T965C 001:647.098    -- Read from C cache (4 bytes @ 0x20000024)
T965C 001:647.113   Data:  40 1C 93 42
T965C 001:647.128 - 0.045ms returns 4 (0x4)
T965C 001:647.547 JLINK_ReadMemEx(0x20000028, 0x4 Bytes, Flags = 0x02000000)
T965C 001:647.563    -- Read from C cache (4 bytes @ 0x20000028)
T965C 001:647.578   Data:  01 D0 01 20
T965C 001:647.593 - 0.050ms returns 4 (0x4)
T965C 001:647.665 JLINK_ReadMemEx(0x20000028, 0x4 Bytes, Flags = 0x02000000)
T965C 001:647.676    -- Read from C cache (4 bytes @ 0x20000028)
T965C 001:647.691   Data:  01 D0 01 20
T965C 001:647.705 - 0.045ms returns 4 (0x4)
T965C 001:647.722 JLINK_ReadMemEx(0x20000028, 0x4 Bytes, Flags = 0x02000000)
T965C 001:647.732    -- Read from C cache (4 bytes @ 0x20000028)
T965C 001:647.747   Data:  01 D0 01 20
T965C 001:647.762 - 0.045ms returns 4 (0x4)
T965C 001:648.184 JLINK_ReadMemEx(0x2000002C, 0x4 Bytes, Flags = 0x02000000)
T965C 001:648.199    -- Read from C cache (4 bytes @ 0x2000002C)
T965C 001:648.214   Data:  70 47 49 1E
T965C 001:648.231 - 0.052ms returns 4 (0x4)
T965C 001:648.308 JLINK_ReadMemEx(0x2000002C, 0x4 Bytes, Flags = 0x02000000)
T965C 001:648.319    -- Read from C cache (4 bytes @ 0x2000002C)
T965C 001:648.334   Data:  70 47 49 1E
T965C 001:648.348 - 0.045ms returns 4 (0x4)
T965C 001:648.365 JLINK_ReadMemEx(0x2000002C, 0x4 Bytes, Flags = 0x02000000)
T965C 001:648.376    -- Read from C cache (4 bytes @ 0x2000002C)
T965C 001:648.391   Data:  70 47 49 1E
T965C 001:648.405 - 0.045ms returns 4 (0x4)
T965C 001:671.589 JLINK_ReadMemEx(0x2000003C, 0x4 Bytes, Flags = 0x02000000)
T965C 001:671.630    -- Read from C cache (4 bytes @ 0x2000003C)
T965C 001:671.646   Data:  07 30 20 28
T965C 001:671.661 - 0.077ms returns 4 (0x4)
T965C 001:671.739 JLINK_ReadMemEx(0x2000003C, 0x4 Bytes, Flags = 0x02000000)
T965C 001:671.751    -- Read from C cache (4 bytes @ 0x2000003C)
T965C 001:671.766   Data:  07 30 20 28
T965C 001:671.780 - 0.045ms returns 4 (0x4)
T965C 001:671.803 JLINK_ReadMemEx(0x2000003C, 0x4 Bytes, Flags = 0x02000000)
T965C 001:671.814    -- Read from C cache (4 bytes @ 0x2000003C)
T965C 001:671.828   Data:  07 30 20 28
T965C 001:671.843 - 0.045ms returns 4 (0x4)
T965C 001:679.678 JLINK_ReadMemEx(0x2000022C, 0x4 Bytes, Flags = 0x02000000)
T965C 001:679.719   CPU_ReadMem(64 bytes @ 0x20000200)
T965C 001:680.313    -- Updating C cache (64 bytes @ 0x20000200)
T965C 001:680.334    -- Read from C cache (4 bytes @ 0x2000022C)
T965C 001:680.349   Data:  FF FF FF FF
T965C 001:680.364 - 0.691ms returns 4 (0x4)
T965C 001:680.452 JLINK_ReadMemEx(0x2000022C, 0x4 Bytes, Flags = 0x02000000)
T965C 001:680.464    -- Read from C cache (4 bytes @ 0x2000022C)
T965C 001:680.479   Data:  FF FF FF FF
T965C 001:680.493 - 0.046ms returns 4 (0x4)
T965C 001:680.515 JLINK_ReadMemEx(0x2000022C, 0x4 Bytes, Flags = 0x02000000)
T965C 001:680.526    -- Read from C cache (4 bytes @ 0x2000022C)
T965C 001:680.541   Data:  FF FF FF FF
T965C 001:680.556 - 0.045ms returns 4 (0x4)
T965C 001:683.364 JLINK_ReadMemEx(0x20000230, 0x4 Bytes, Flags = 0x02000000)
T965C 001:683.392    -- Read from C cache (4 bytes @ 0x20000230)
T965C 001:683.408   Data:  FF FF FF FF
T965C 001:683.423 - 0.116ms returns 4 (0x4)
T965C 001:683.571 JLINK_ReadMemEx(0x20000230, 0x4 Bytes, Flags = 0x02000000)
T965C 001:683.583    -- Read from C cache (4 bytes @ 0x20000230)
T965C 001:683.598   Data:  FF FF FF FF
T965C 001:683.613 - 0.046ms returns 4 (0x4)
T965C 001:683.633 JLINK_ReadMemEx(0x20000230, 0x4 Bytes, Flags = 0x02000000)
T965C 001:683.644    -- Read from C cache (4 bytes @ 0x20000230)
T965C 001:683.659   Data:  FF FF FF FF
T965C 001:683.674 - 0.045ms returns 4 (0x4)
T965C 001:686.792 JLINK_ReadMemEx(0x20000228, 0x4 Bytes, Flags = 0x02000000)
T965C 001:686.824    -- Read from C cache (4 bytes @ 0x20000228)
T965C 001:686.842   Data:  FF FF FF FF
T965C 001:686.860 - 0.073ms returns 4 (0x4)
T965C 001:687.018 JLINK_ReadMemEx(0x20000228, 0x4 Bytes, Flags = 0x02000000)
T965C 001:687.030    -- Read from C cache (4 bytes @ 0x20000228)
T965C 001:687.048   Data:  FF FF FF FF
T965C 001:687.065 - 0.051ms returns 4 (0x4)
T965C 001:687.100 JLINK_ReadMemEx(0x20000228, 0x4 Bytes, Flags = 0x02000000)
T965C 001:687.113    -- Read from C cache (4 bytes @ 0x20000228)
T965C 001:687.130   Data:  FF FF FF FF
T965C 001:687.147 - 0.052ms returns 4 (0x4)
T965C 001:691.711 JLINK_ReadMemEx(0x2000816C, 0x4 Bytes, Flags = 0x02000000)
T965C 001:691.743   CPU_ReadMem(64 bytes @ 0x20008140)
T965C 001:692.316    -- Updating C cache (64 bytes @ 0x20008140)
T965C 001:692.331    -- Read from C cache (4 bytes @ 0x2000816C)
T965C 001:692.346   Data:  00 00 00 00
T965C 001:692.361 - 0.654ms returns 4 (0x4)
T965C 001:692.497 JLINK_ReadMemEx(0x2000816C, 0x4 Bytes, Flags = 0x02000000)
T965C 001:692.508    -- Read from C cache (4 bytes @ 0x2000816C)
T965C 001:692.524   Data:  00 00 00 00
T965C 001:692.538 - 0.046ms returns 4 (0x4)
T965C 001:692.560 JLINK_ReadMemEx(0x2000816C, 0x4 Bytes, Flags = 0x02000000)
T965C 001:692.571    -- Read from C cache (4 bytes @ 0x2000816C)
T965C 001:692.586   Data:  00 00 00 00
T965C 001:692.601 - 0.045ms returns 4 (0x4)
T965C 001:715.644 JLINK_ReadMemEx(0x20004FE0, 0x1E Bytes, Flags = 0x02000000)
T965C 001:715.692   CPU_ReadMem(64 bytes @ 0x20004FC0)
T965C 001:716.205    -- Updating C cache (64 bytes @ 0x20004FC0)
T965C 001:716.225    -- Read from C cache (30 bytes @ 0x20004FE0)
T965C 001:716.240   Data:  00 00 00 00 00 00 00 00 00 00 00 00 00 00 00 00 ...
T965C 001:716.255 - 0.616ms returns 30 (0x1E)
T965C 001:726.290 JLINK_ReadMemEx(0x20004FE0, 0x1E Bytes, Flags = 0x02000000)
T965C 001:726.330    -- Read from C cache (30 bytes @ 0x20004FE0)
T965C 001:726.346   Data:  00 00 00 00 00 00 00 00 00 00 00 00 00 00 00 00 ...
T965C 001:726.361 - 0.076ms returns 30 (0x1E)
T965C 001:734.930 JLINK_ReadMemEx(0x20004FE0, 0x1E Bytes, Flags = 0x02000000)
T965C 001:734.964    -- Read from C cache (30 bytes @ 0x20004FE0)
T965C 001:734.980   Data:  00 00 00 00 00 00 00 00 00 00 00 00 00 00 00 00 ...
T965C 001:734.994 - 0.069ms returns 30 (0x1E)
T965C 001:744.698 JLINK_ReadMemEx(0x20000140, 0x4 Bytes, Flags = 0x02000000)
T965C 001:744.739    -- Read from C cache (4 bytes @ 0x20000140)
T965C 001:744.754   Data:  02 00 20 60
T965C 001:744.769 - 0.076ms returns 4 (0x4)
T965C 001:744.847 JLINK_ReadMemEx(0x20000140, 0x4 Bytes, Flags = 0x02000000)
T965C 001:744.858    -- Read from C cache (4 bytes @ 0x20000140)
T965C 001:744.873   Data:  02 00 20 60
T965C 001:744.888 - 0.045ms returns 4 (0x4)
T965C 001:744.909 JLINK_ReadMemEx(0x20000140, 0x4 Bytes, Flags = 0x02000000)
T965C 001:744.920    -- Read from C cache (4 bytes @ 0x20000140)
T965C 001:744.934   Data:  02 00 20 60
T965C 001:744.949 - 0.045ms returns 4 (0x4)
T965C 001:749.634 JLINK_ReadMemEx(0x2000001A, 0x1 Bytes, Flags = 0x02000000)
T965C 001:749.666    -- Read from C cache (1 bytes @ 0x2000001A)
T965C 001:749.681   Data:  00
T965C 001:749.696 - 0.067ms returns 1 (0x1)
T965C 001:749.776 JLINK_ReadMemEx(0x2000001A, 0x1 Bytes, Flags = 0x02000000)
T965C 001:749.788    -- Read from C cache (1 bytes @ 0x2000001A)
T965C 001:749.802   Data:  00
T965C 001:749.817 - 0.045ms returns 1 (0x1)
T965C 001:749.837 JLINK_ReadMemEx(0x2000001A, 0x1 Bytes, Flags = 0x02000000)
T965C 001:749.853    -- Read from C cache (1 bytes @ 0x2000001A)
T965C 001:749.870   Data:  00
T965C 001:749.884 - 0.051ms returns 1 (0x1)
T965C 001:756.042 JLINK_ReadMemEx(0x2000001A, 0x1 Bytes, Flags = 0x02000000)
T965C 001:756.081    -- Read from C cache (1 bytes @ 0x2000001A)
T965C 001:756.098   Data:  00
T965C 001:756.116 - 0.079ms returns 1 (0x1)
T965C 001:756.210 JLINK_ReadMemEx(0x2000001A, 0x1 Bytes, Flags = 0x02000000)
T965C 001:756.222    -- Read from C cache (1 bytes @ 0x2000001A)
T965C 001:756.240   Data:  00
T965C 001:756.258 - 0.054ms returns 1 (0x1)
T965C 001:756.307 JLINK_ReadMemEx(0x2000001A, 0x1 Bytes, Flags = 0x02000000)
T965C 001:756.322    -- Read from C cache (1 bytes @ 0x2000001A)
T965C 001:756.339   Data:  00
T965C 001:756.356 - 0.054ms returns 1 (0x1)
T39F0 001:789.287 JLINK_ReadMemEx(0x0800025C, 0x2 Bytes, Flags = 0x02000000)
T39F0 001:789.328    -- Read from C cache (2 bytes @ 0x0800025C)
T39F0 001:789.346   Data:  06 48
T39F0 001:789.364 - 0.083ms returns 2 (0x2)
T39F0 001:789.377 JLINK_HasError()
T39F0 001:789.393 JLINK_SetBPEx(Addr = 0x0800AB20, Type = 0xFFFFFFF2)
T39F0 001:789.409 - 0.021ms returns 0x00000001
T39F0 001:789.421 JLINK_HasError()
T39F0 001:789.434 JLINK_HasError()
T39F0 001:789.446 JLINK_Go()
T39F0 001:789.483   CPU_WriteMem(4 bytes @ 0xE0002000)
T39F0 001:789.842   CPU_ReadMem(4 bytes @ 0xE0001000)
T39F0 001:790.195   CPU_WriteMem(4 bytes @ 0xE0002008)
T39F0 001:790.222   CPU_WriteMem(4 bytes @ 0xE000200C)
T39F0 001:790.240   CPU_WriteMem(4 bytes @ 0xE0002010)
T39F0 001:790.257   CPU_WriteMem(4 bytes @ 0xE0002014)
T39F0 001:790.275   CPU_WriteMem(4 bytes @ 0xE0002018)
T39F0 001:790.292   CPU_WriteMem(4 bytes @ 0xE000201C)
T39F0 001:791.139   CPU_WriteMem(4 bytes @ 0xE0001004)
T39F0 001:791.625 - 2.185ms
T39F0 001:891.911 JLINK_HasError()
T39F0 001:891.952 JLINK_IsHalted()
T39F0 001:892.337 - 0.395ms returns FALSE
T39F0 001:992.465 JLINK_HasError()
T39F0 001:992.519 JLINK_IsHalted()
T39F0 001:994.129 - 1.639ms returns TRUE
T39F0 001:994.177 JLINK_HasError()
T39F0 001:994.207 JLINK_Halt()
T39F0 001:994.236 - 0.042ms returns 0x00
T39F0 001:994.266 JLINK_IsHalted()
T39F0 001:994.293 - 0.041ms returns TRUE
T39F0 001:994.323 JLINK_IsHalted()
T39F0 001:994.351 - 0.042ms returns TRUE
T39F0 001:994.380 JLINK_IsHalted()
T39F0 001:994.408 - 0.044ms returns TRUE
T39F0 001:994.442 JLINK_HasError()
T39F0 001:994.472 JLINK_ReadReg(R15 (PC))
T39F0 001:994.496 - 0.034ms returns 0x0800AB20
T39F0 001:994.518 JLINK_ReadReg(XPSR)
T39F0 001:994.539 - 0.031ms returns 0x61000000
T39F0 001:994.564 JLINK_HasError()
T39F0 001:994.585 JLINK_ClrBPEx(BPHandle = 0x00000001)
T39F0 001:994.607 - 0.031ms returns 0x00
T39F0 001:994.628 JLINK_HasError()
T39F0 001:994.650 JLINK_HasError()
T39F0 001:994.672 JLINK_ReadMemU32(0xE000ED30, 0x1 Items)
T39F0 001:994.699   CPU_ReadMem(4 bytes @ 0xE000ED30)
T39F0 001:995.123   Data:  02 00 00 00
T39F0 001:995.164 - 0.502ms returns 1 (0x1)
T39F0 001:995.189 JLINK_ReadMemU32(0xE0001028, 0x1 Items)
T39F0 001:995.217   CPU_ReadMem(4 bytes @ 0xE0001028)
T39F0 001:995.588   Data:  00 00 00 00
T39F0 001:995.640   Debug reg: DWT_FUNC[0]
T39F0 001:995.670 - 0.492ms returns 1 (0x1)
T39F0 001:995.695 JLINK_ReadMemU32(0xE0001038, 0x1 Items)
T39F0 001:995.723   CPU_ReadMem(4 bytes @ 0xE0001038)
T39F0 001:996.150   Data:  00 02 00 00
T39F0 001:996.192   Debug reg: DWT_FUNC[1]
T39F0 001:996.222 - 0.537ms returns 1 (0x1)
T39F0 001:996.247 JLINK_ReadMemU32(0xE0001048, 0x1 Items)
T39F0 001:996.276   CPU_ReadMem(4 bytes @ 0xE0001048)
T39F0 001:996.711   Data:  00 00 00 00
T39F0 001:996.753   Debug reg: DWT_FUNC[2]
T39F0 001:996.784 - 0.547ms returns 1 (0x1)
T39F0 001:996.809 JLINK_ReadMemU32(0xE0001058, 0x1 Items)
T39F0 001:996.837   CPU_ReadMem(4 bytes @ 0xE0001058)
T39F0 001:997.287   Data:  00 00 00 00
T39F0 001:997.328   Debug reg: DWT_FUNC[3]
T39F0 001:997.358 - 0.559ms returns 1 (0x1)
T39F0 001:997.488 JLINK_HasError()
T39F0 001:997.512 JLINK_ReadReg(R0)
T39F0 001:997.537 - 0.040ms returns 0x0800AB21
T39F0 001:997.571 JLINK_ReadReg(R1)
T39F0 001:997.592 - 0.031ms returns 0x2001F140
T39F0 001:997.614 JLINK_ReadReg(R2)
T39F0 001:997.634 - 0.031ms returns 0x00000000
T39F0 001:997.657 JLINK_ReadReg(R3)
T39F0 001:997.678 - 0.030ms returns 0x08002FB9
T39F0 001:997.699 JLINK_ReadReg(R4)
T39F0 001:997.720 - 0.031ms returns 0x0801A754
T39F0 001:997.743 JLINK_ReadReg(R5)
T39F0 001:997.764 - 0.031ms returns 0x0801A754
T39F0 001:997.785 JLINK_ReadReg(R6)
T39F0 001:997.806 - 0.030ms returns 0x00000000
T39F0 001:997.830 JLINK_ReadReg(R7)
T39F0 001:997.853 - 0.033ms returns 0x00000000
T39F0 001:997.875 JLINK_ReadReg(R8)
T39F0 001:997.897 - 0.031ms returns 0x00000000
T39F0 001:997.921 JLINK_ReadReg(R9)
T39F0 001:997.942 - 0.032ms returns 0x200001CC
T39F0 001:997.966 JLINK_ReadReg(R10)
T39F0 001:997.987 - 0.032ms returns 0x00000000
T39F0 001:998.010 JLINK_ReadReg(R11)
T39F0 001:998.032 - 0.032ms returns 0x00000000
T39F0 001:998.056 JLINK_ReadReg(R12)
T39F0 001:998.078 - 0.032ms returns 0x00000000
T39F0 001:998.101 JLINK_ReadReg(R13 (SP))
T39F0 001:998.123 - 0.032ms returns 0x2001F140
T39F0 001:998.146 JLINK_ReadReg(R14)
T39F0 001:998.168 - 0.032ms returns 0x0800082D
T39F0 001:998.191 JLINK_ReadReg(R15 (PC))
T39F0 001:998.213 - 0.032ms returns 0x0800AB20
T39F0 001:998.236 JLINK_ReadReg(XPSR)
T39F0 001:998.258 - 0.032ms returns 0x61000000
T39F0 001:998.281 JLINK_ReadReg(MSP)
T39F0 001:998.303 - 0.032ms returns 0x2001F140
T39F0 001:998.327 JLINK_ReadReg(PSP)
T39F0 001:998.348 - 0.032ms returns 0x20001000
T39F0 001:998.494 JLINK_ReadReg(CFBP)
T39F0 001:998.533 - 0.050ms returns 0x00000000
T39F0 001:998.558 JLINK_ReadReg(FPSCR)
T39F0 002:000.900 - 2.371ms returns 0x00000000
T39F0 002:000.946 JLINK_ReadReg(FPS0)
T39F0 002:000.972 - 0.036ms returns 0x00000000
T39F0 002:000.995 JLINK_ReadReg(FPS1)
T39F0 002:001.017 - 0.032ms returns 0x3FE00000
T39F0 002:001.040 JLINK_ReadReg(FPS2)
T39F0 002:001.061 - 0.032ms returns 0x6BB93372
T39F0 002:001.084 JLINK_ReadReg(FPS3)
T39F0 002:001.106 - 0.032ms returns 0x487257DC
T39F0 002:001.128 JLINK_ReadReg(FPS4)
T39F0 002:001.150 - 0.032ms returns 0xF566C000
T39F0 002:001.173 JLINK_ReadReg(FPS5)
T39F0 002:001.194 - 0.032ms returns 0xA3C20AA6
T39F0 002:001.217 JLINK_ReadReg(FPS6)
T39F0 002:001.239 - 0.032ms returns 0x0BFE1E37
T39F0 002:001.262 JLINK_ReadReg(FPS7)
T39F0 002:001.284 - 0.032ms returns 0x78B0DC09
T39F0 002:001.306 JLINK_ReadReg(FPS8)
T39F0 002:001.328 - 0.032ms returns 0xFB011513
T39F0 002:001.350 JLINK_ReadReg(FPS9)
T39F0 002:001.372 - 0.032ms returns 0x7D7C4D92
T39F0 002:001.395 JLINK_ReadReg(FPS10)
T39F0 002:001.417 - 0.032ms returns 0xD9B9D71C
T39F0 002:001.439 JLINK_ReadReg(FPS11)
T39F0 002:001.460 - 0.033ms returns 0x64F98E89
T39F0 002:001.485 JLINK_ReadReg(FPS12)
T39F0 002:001.509 - 0.035ms returns 0x21C91232
T39F0 002:001.534 JLINK_ReadReg(FPS13)
T39F0 002:001.558 - 0.035ms returns 0x0D8C4C54
T39F0 002:001.583 JLINK_ReadReg(FPS14)
T39F0 002:001.607 - 0.035ms returns 0xDA860053
T39F0 002:001.631 JLINK_ReadReg(FPS15)
T39F0 002:001.655 - 0.035ms returns 0x035CE144
T39F0 002:001.680 JLINK_ReadReg(FPS16)
T39F0 002:001.703 - 0.035ms returns 0x00000000
T39F0 002:001.728 JLINK_ReadReg(FPS17)
T39F0 002:001.752 - 0.035ms returns 0x40BF4080
T39F0 002:001.777 JLINK_ReadReg(FPS18)
T39F0 002:001.801 - 0.035ms returns 0x00000000
T39F0 002:001.825 JLINK_ReadReg(FPS19)
T39F0 002:001.849 - 0.041ms returns 0x40BF4000
T39F0 002:001.880 JLINK_ReadReg(FPS20)
T39F0 002:001.904 - 0.035ms returns 0x00000000
T39F0 002:001.929 JLINK_ReadReg(FPS21)
T39F0 002:001.952 - 0.035ms returns 0x40D77000
T39F0 002:001.977 JLINK_ReadReg(FPS22)
T39F0 002:002.001 - 0.035ms returns 0x00000000
T39F0 002:002.026 JLINK_ReadReg(FPS23)
T39F0 002:002.050 - 0.035ms returns 0x419C9C38
T39F0 002:002.075 JLINK_ReadReg(FPS24)
T39F0 002:002.099 - 0.035ms returns 0xEBB43697
T39F0 002:002.123 JLINK_ReadReg(FPS25)
T39F0 002:002.147 - 0.035ms returns 0x2B07C6CC
T39F0 002:002.172 JLINK_ReadReg(FPS26)
T39F0 002:002.196 - 0.039ms returns 0x3C081DA8
T39F0 002:002.228 JLINK_ReadReg(FPS27)
T39F0 002:002.252 - 0.036ms returns 0xFC9BF60A
T39F0 002:002.278 JLINK_ReadReg(FPS28)
T39F0 002:002.301 - 0.035ms returns 0x20CADC94
T39F0 002:002.326 JLINK_ReadReg(FPS29)
T39F0 002:002.350 - 0.035ms returns 0x1DDF3402
T39F0 002:002.375 JLINK_ReadReg(FPS30)
T39F0 002:002.399 - 0.035ms returns 0x6AC82685
T39F0 002:002.424 JLINK_ReadReg(FPS31)
T39F0 002:002.448 - 0.035ms returns 0x905EC1CE
T39F0 002:002.477 JLINK_ReadMemEx(0x20000154, 0x4 Bytes, Flags = 0x02000000)
T39F0 002:002.513   CPU_ReadMem(64 bytes @ 0x20000140)
T39F0 002:003.099    -- Updating C cache (64 bytes @ 0x20000140)
T39F0 002:003.134    -- Read from C cache (4 bytes @ 0x20000154)
T39F0 002:003.161   Data:  00 00 00 00
T39F0 002:003.187 - 0.719ms returns 4 (0x4)
T965C 002:006.133 JLINK_ReadMemEx(0x20000144, 0x4 Bytes, Flags = 0x02000000)
T965C 002:006.163    -- Read from C cache (4 bytes @ 0x20000144)
T965C 002:006.178   Data:  00 00 00 00
T965C 002:006.193 - 0.065ms returns 4 (0x4)
T965C 002:006.451 JLINK_ReadMemEx(0x2000212C, 0x20 Bytes, Flags = 0x02000000)
T965C 002:006.465   CPU_ReadMem(128 bytes @ 0x20002100)
T965C 002:007.206    -- Updating C cache (128 bytes @ 0x20002100)
T965C 002:007.225    -- Read from C cache (32 bytes @ 0x2000212C)
T965C 002:007.241   Data:  00 00 00 00 00 00 00 00 00 00 00 00 00 00 00 00 ...
T965C 002:007.255 - 0.809ms returns 32 (0x20)
T965C 002:007.575 JLINK_ReadMemEx(0x20000004, 0x4 Bytes, Flags = 0x02000000)
T965C 002:007.591   CPU_ReadMem(64 bytes @ 0x20000000)
T965C 002:008.102    -- Updating C cache (64 bytes @ 0x20000000)
T965C 002:008.126    -- Read from C cache (4 bytes @ 0x20000004)
T965C 002:008.143   Data:  00 00 00 00
T965C 002:008.161 - 0.591ms returns 4 (0x4)
